
T41BC 000:035 SEGGER J-Link V6.10i Log File (0001ms, 0018ms total)
T41BC 000:035 DLL Compiled: Oct 25 2016 19:31:51 (0001ms, 0018ms total)
T41BC 000:035 Logging started @ 2017-04-02 11:01 (0001ms, 0018ms total)
T41BC 000:036 JLINK_SetWarnOutHandler(...) (0000ms, 0018ms total)
T41BC 000:036 JLINK_OpenEx(...)
Firmware: J-Link OB-SAM3U128-V2-NordicSemi compiled Sep 26 2016 11:30:32
Hardware: V1.00
S/N: 682194787WEBSRV Webserver running on local port 19080 (0008ms, 0026ms total)
T41BC 000:036   returns O.K. (0008ms, 0026ms total)
T41BC 000:044 JLINK_SetErrorOutHandler(...) (0000ms, 0026ms total)
T41BC 000:044 JLINK_ExecCommand("ProjectFile = "C:\Users\mahmoodms\Documents\_APPDEV_new\nRF_Development\nRF5_SDK_11.0.0_2\examples\_my_projects\ble_wheelchair_control_0\pca10028\s130\arm5_no_packs\JLinkSettings.ini"", ...).   returns 0x00 (0107ms, 0133ms total)
T41BC 000:154 JLINK_ExecCommand("Device = nRF51422_xxAC", ...). Device "NRF51422_XXAC" selected.  returns 0x00 (0003ms, 0136ms total)
T41BC 000:157 JLINK_ExecCommand("DisableConnectionTimeout", ...).   returns 0x01 (0000ms, 0136ms total)
T41BC 000:157 JLINK_GetHardwareVersion()  returns 0x2710 (0000ms, 0136ms total)
T41BC 000:157 JLINK_GetDLLVersion()  returns 61009 (0000ms, 0136ms total)
T41BC 000:157 JLINK_GetFirmwareString(...) (0000ms, 0136ms total)
T41BC 000:168 JLINK_GetDLLVersion()  returns 61009 (0000ms, 0136ms total)
T41BC 000:168 JLINK_GetCompileDateTime() (0000ms, 0136ms total)
T41BC 000:171 JLINK_GetFirmwareString(...) (0000ms, 0136ms total)
T41BC 000:173 JLINK_GetHardwareVersion()  returns 0x2710 (0000ms, 0136ms total)
T41BC 000:179 JLINK_TIF_Select(JLINKARM_TIF_SWD)  returns 0x00 (0001ms, 0137ms total)
T41BC 000:180 JLINK_SetSpeed(5000) (0001ms, 0138ms total)
T41BC 000:181 JLINK_GetId() >0x108 TIF>Found SWD-DP with ID 0x0BB11477 >0x0D TIF> >0x28 TIF> >0x0D TIF> >0x28 TIF> >0x0D TIF> >0x28 TIF> >0x0D TIF> >0x28 TIF> >0x35 TIF> >0x0D TIF> >0x28 TIF> >0x0D TIF> >0x28 TIF> >0x35 TIF> >0x35 TIF> >0x35 TIF>AP-IDR: 0x04770021, Type: AHB-AP >0x0D TIF> >0x28 TIF> >0x0D TIF> >0x28 TIF> >0x0D TIF> >0x28 TIF> >0x35 TIF> >0x35 TIF> >0x0D TIF> >0x28 TIF> >0x35 TIF> >0x35 TIF>Found Cortex-M0 r0p0, Little endian. -- CPU_ReadMem(4 bytes @ 0xE000EDF0)
 -- CPU_ReadMem(4 bytes @ 0xE0002000)FPUnit: 4 code (BP) slots and 0 literal slots -- CPU_ReadMem(4 bytes @ 0xE000EDFC) -- CPU_WriteMem(4 bytes @ 0xE000EDFC) -- CPU_ReadMem(4 bytes @ 0xE0001000) -- CPU_WriteMem(4 bytes @ 0xE0001000)CoreSight components:ROMTbl 0 @ F0000000 -- CPU_ReadMem(16 bytes @ 0xF0000000) -- CPU_ReadMem(16 bytes @ 0xE00FFFF0) -- CPU_ReadMem(16 bytes @ 0xE00FFFE0)ROMTbl 0 [0]: F00FF000, CID: B105100D, PID: 000BB471 ROM TableROMTbl 1 @ E00FF000 -- CPU_ReadMem(16 bytes @ 0xE00FF000)
 -- CPU_ReadMem(16 bytes @ 0xE000EFF0) -- CPU_ReadMem(16 bytes @ 0xE000EFE0)ROMTbl 1 [0]: FFF0F000, CID: B105E00D, PID: 000BB008 SCS -- CPU_ReadMem(16 bytes @ 0xE0001FF0) -- CPU_ReadMem(16 bytes @ 0xE0001FE0)ROMTbl 1 [1]: FFF02000, CID: B105E00D, PID: 000BB00A DWT -- CPU_ReadMem(16 bytes @ 0xE0002FF0) -- CPU_ReadMem(16 bytes @ 0xE0002FE0)ROMTbl 1 [2]: FFF03000, CID: B105E00D, PID: 000BB00B FPB -- CPU_ReadMem(16 bytes @ 0xF0002FF0) -- CPU_ReadMem(16 bytes @ 0xF0002FE0)
ROMTbl 0 [1]: 00002000, CID: B105900D, PID: 000BB9A3 ??? >0x35 TIF>  returns 0x0BB11477 (0055ms, 0193ms total)
T41BC 000:236 JLINK_GetDLLVersion()  returns 61009 (0000ms, 0193ms total)
T41BC 000:236 JLINK_CORE_GetFound()  returns 0x60000FF (0000ms, 0193ms total)
T41BC 000:236 JLINK_GetDebugInfo(0x100) -- Value=0xF0000000  returns 0x00 (0000ms, 0193ms total)
T41BC 000:238 JLINK_GetDebugInfo(0x100) -- Value=0xF0000000  returns 0x00 (0000ms, 0193ms total)
T41BC 000:238 JLINK_GetDebugInfo(0x101) -- Value=0x00000000  returns 0x00 (0000ms, 0193ms total)
T41BC 000:238 JLINK_ReadMem (0xE0041FF0, 0x0010 Bytes, ...) -- CPU is running -- CPU_ReadMem(16 bytes @ 0xE0041FF0) - Data: 00 00 00 00 00 00 00 00 00 00 00 00 00 00 00 00  returns 0x00 (0001ms, 0194ms total)
T41BC 000:239 JLINK_GetDebugInfo(0x102) -- Value=0x00000000  returns 0x00 (0000ms, 0194ms total)
T41BC 000:239 JLINK_GetDebugInfo(0x103) -- Value=0x00000000  returns 0x00 (0000ms, 0194ms total)
T41BC 000:239 JLINK_ReadMem (0xE0040FF0, 0x0010 Bytes, ...) -- CPU is running -- CPU_ReadMem(16 bytes @ 0xE0040FF0) - Data: 00 00 00 00 00 00 00 00 00 00 00 00 00 00 00 00  returns 0x00 (0001ms, 0195ms total)
T41BC 000:240 JLINK_GetDebugInfo(0x104) -- Value=0xE0000000  returns 0x00 (0000ms, 0195ms total)
T41BC 000:240 JLINK_GetDebugInfo(0x105) -- Value=0xE0001000  returns 0x00 (0000ms, 0195ms total)
T41BC 000:240 JLINK_GetDebugInfo(0x106) -- Value=0xE0002000  returns 0x00 (0000ms, 0195ms total)
T41BC 000:240 JLINK_GetDebugInfo(0x107) -- Value=0xE000E000  returns 0x00 (0000ms, 0195ms total)
T41BC 000:240 JLINK_GetDebugInfo(0x10C) -- Value=0xE000EDF0  returns 0x00 (0000ms, 0195ms total)
T41BC 000:240 JLINK_ReadMemU32(0xE000ED00, 0x0001 Items, ...) -- CPU is running -- CPU_ReadMem(4 bytes @ 0xE000ED00) - Data: 00 C2 0C 41  returns 0x01 (0001ms, 0196ms total)
T41BC 000:241 JLINK_SetResetType(JLINKARM_RESET_TYPE_NORMAL)  returns JLINKARM_RESET_TYPE_NORMAL (0000ms, 0196ms total)
T41BC 000:241 JLINK_Reset() -- CPU is running -- CPU_WriteMem(4 bytes @ 0xE000EDF0) -- CPU is running -- CPU_WriteMem(4 bytes @ 0xE000EDFC) >0x35 TIF> -- CPU is running -- CPU_WriteMem(4 bytes @ 0xE000ED0C) -- CPU is running -- CPU_ReadMem(4 bytes @ 0xE000EDF0) -- CPU is running -- CPU_ReadMem(4 bytes @ 0xE000EDF0) -- CPU is running -- CPU_WriteMem(4 bytes @ 0xE000EDF0) -- CPU is running -- CPU_WriteMem(4 bytes @ 0xE000EDFC) -- CPU is running -- CPU_ReadMem(4 bytes @ 0xE000EDF0)
 -- CPU_WriteMem(4 bytes @ 0xE0002000) -- CPU_ReadMem(4 bytes @ 0xE000EDFC) -- CPU_ReadMem(4 bytes @ 0xE0001000) -- CPU_WriteMem(4 bytes @ 0xE0001000) (0023ms, 0219ms total)
T41BC 000:264 JLINK_Halt()  returns 0x00 (0000ms, 0219ms total)
T41BC 000:264 JLINK_IsHalted()  returns TRUE (0000ms, 0219ms total)
T41BC 000:264 JLINK_ReadMemU32(0xE000EDF0, 0x0001 Items, ...) -- CPU_ReadMem(4 bytes @ 0xE000EDF0) - Data: 03 00 03 00  returns 0x01 (0001ms, 0220ms total)
T41BC 000:265 JLINK_WriteU32(0xE000EDF0, 0xA05F0003) -- CPU_WriteMem(4 bytes @ 0xE000EDF0)  returns 0x00 (0001ms, 0221ms total)
T41BC 000:266 JLINK_WriteU32(0xE000EDFC, 0x01000000) -- CPU_WriteMem(4 bytes @ 0xE000EDFC)  returns 0x00 (0001ms, 0222ms total)
T41BC 000:276 JLINK_GetHWStatus(...)  returns 0x00 (0000ms, 0222ms total)
T41BC 000:283 JLINK_GetNumBPUnits(Type = 0xFFFFFF00)  returns 0x04 (0000ms, 0222ms total)
T41BC 000:283 JLINK_GetNumBPUnits(Type = 0xF0)  returns 0x2000 (0000ms, 0222ms total)
T41BC 000:283 JLINK_GetNumWPUnits()  returns 0x02 (0000ms, 0222ms total)
T41BC 000:289 JLINK_GetSpeed()  returns 0x3E8 (0000ms, 0222ms total)
T41BC 000:293 JLINK_ReadMemU32(0xE000E004, 0x0001 Items, ...) -- CPU_ReadMem(4 bytes @ 0xE000E004) - Data: 00 00 00 00  returns 0x01 (0000ms, 0222ms total)
T41BC 000:293 JLINK_Halt()  returns 0x00 (0000ms, 0222ms total)
T41BC 000:293 JLINK_IsHalted()  returns TRUE (0000ms, 0222ms total)
T41BC 000:295 JLINK_WriteMem(0x20000000, 0x0478 Bytes, ...) - Data: 00 BE 0A E0 0D 78 2D 06 68 40 08 24 40 00 00 D3 ... -- CPU_WriteMem(1144 bytes @ 0x20000000)  returns 0x478 (0016ms, 0238ms total)
T41BC 000:311 JLINK_WriteReg(R0, 0x00000000)  returns 0x00 (0000ms, 0238ms total)
T41BC 000:311 JLINK_WriteReg(R1, 0x00F42400)  returns 0x00 (0000ms, 0238ms total)
T41BC 000:311 JLINK_WriteReg(R2, 0x00000001)  returns 0x00 (0000ms, 0238ms total)
T41BC 000:311 JLINK_WriteReg(R3, 0x00000000)  returns 0x00 (0000ms, 0238ms total)
T41BC 000:311 JLINK_WriteReg(R4, 0x00000000)  returns 0x00 (0000ms, 0238ms total)
T41BC 000:311 JLINK_WriteReg(R5, 0x00000000)  returns 0x00 (0000ms, 0238ms total)
T41BC 000:311 JLINK_WriteReg(R6, 0x00000000)  returns 0x00 (0000ms, 0238ms total)
T41BC 000:311 JLINK_WriteReg(R7, 0x00000000)  returns 0x00 (0000ms, 0238ms total)
T41BC 000:311 JLINK_WriteReg(R8, 0x00000000)  returns 0x00 (0000ms, 0238ms total)
T41BC 000:311 JLINK_WriteReg(R9, 0x20000474)  returns 0x00 (0000ms, 0238ms total)
T41BC 000:311 JLINK_WriteReg(R10, 0x00000000)  returns 0x00 (0000ms, 0238ms total)
T41BC 000:311 JLINK_WriteReg(R11, 0x00000000)  returns 0x00 (0000ms, 0238ms total)
T41BC 000:311 JLINK_WriteReg(R12, 0x00000000)  returns 0x00 (0001ms, 0239ms total)
T41BC 000:312 JLINK_WriteReg(R13 (SP), 0x20002000)  returns 0x00 (0000ms, 0239ms total)
T41BC 000:312 JLINK_WriteReg(R14, 0x20000001)  returns 0x00 (0000ms, 0239ms total)
T41BC 000:312 JLINK_WriteReg(R15 (PC), 0x20000028)  returns 0x00 (0000ms, 0239ms total)
T41BC 000:312 JLINK_WriteReg(XPSR, 0x01000000)  returns 0x00 (0000ms, 0239ms total)
T41BC 000:312 JLINK_WriteReg(MSP, 0x20002000)  returns 0x00 (0000ms, 0239ms total)
T41BC 000:312 JLINK_WriteReg(PSP, 0x20002000)  returns 0x00 (0000ms, 0239ms total)
T41BC 000:312 JLINK_WriteReg(CFBP, 0x00000000)  returns 0x00 (0000ms, 0239ms total)
T41BC 000:312 JLINK_SetBPEx(Addr = 0x20000000, Type = 0xFFFFFFF2) -- CPU_ReadMem(2 bytes @ 0x20000000)  returns 0x00000001 (0000ms, 0239ms total)
T41BC 000:313 JLINK_Go() -- CPU_WriteMem(2 bytes @ 0x20000000) -- CPU_ReadMem(4 bytes @ 0xE0001000) -- CPU_WriteMem(4 bytes @ 0xE0001000) -- CPU_WriteMem(4 bytes @ 0xE0002008) -- CPU_WriteMem(4 bytes @ 0xE000200C) -- CPU_WriteMem(4 bytes @ 0xE0002010) -- CPU_WriteMem(4 bytes @ 0xE0002014) -- CPU_WriteMem(4 bytes @ 0xE0001004) (0010ms, 0250ms total)
T41BC 000:323 JLINK_IsHalted() -- CPU_ReadMem(2 bytes @ 0x20000000)  returns TRUE (0007ms, 0257ms total)
T41BC 000:330 JLINK_ReadReg(R15 (PC))  returns 0x20000000 (0000ms, 0250ms total)
T41BC 000:330 JLINK_ClrBPEx(BPHandle = 0x00000001)  returns 0x00 (0000ms, 0250ms total)
T41BC 000:330 JLINK_ReadReg(R0)  returns 0x00000000 (0000ms, 0250ms total)
T41BC 000:330 JLINK_WriteReg(R0, 0x0001B000)  returns 0x00 (0000ms, 0250ms total)
T41BC 000:330 JLINK_WriteReg(R1, 0x00000400)  returns 0x00 (0000ms, 0250ms total)
T41BC 000:330 JLINK_WriteReg(R2, 0x000000FF)  returns 0x00 (0000ms, 0250ms total)
T41BC 000:330 JLINK_WriteReg(R3, 0x00000000)  returns 0x00 (0000ms, 0250ms total)
T41BC 000:330 JLINK_WriteReg(R4, 0x00000000)  returns 0x00 (0000ms, 0250ms total)
T41BC 000:331 JLINK_WriteReg(R5, 0x00000000)  returns 0x00 (0000ms, 0250ms total)
T41BC 000:331 JLINK_WriteReg(R6, 0x00000000)  returns 0x00 (0000ms, 0250ms total)
T41BC 000:331 JLINK_WriteReg(R7, 0x00000000)  returns 0x00 (0000ms, 0250ms total)
T41BC 000:331 JLINK_WriteReg(R8, 0x00000000)  returns 0x00 (0000ms, 0250ms total)
T41BC 000:331 JLINK_WriteReg(R9, 0x20000474)  returns 0x00 (0000ms, 0250ms total)
T41BC 000:331 JLINK_WriteReg(R10, 0x00000000)  returns 0x00 (0000ms, 0250ms total)
T41BC 000:331 JLINK_WriteReg(R11, 0x00000000)  returns 0x00 (0000ms, 0250ms total)
T41BC 000:331 JLINK_WriteReg(R12, 0x00000000)  returns 0x00 (0000ms, 0250ms total)
T41BC 000:331 JLINK_WriteReg(R13 (SP), 0x20002000)  returns 0x00 (0000ms, 0250ms total)
T41BC 000:331 JLINK_WriteReg(R14, 0x20000001)  returns 0x00 (0000ms, 0250ms total)
T41BC 000:331 JLINK_WriteReg(R15 (PC), 0x20000188)  returns 0x00 (0000ms, 0250ms total)
T41BC 000:331 JLINK_WriteReg(XPSR, 0x01000000)  returns 0x00 (0000ms, 0250ms total)
T41BC 000:331 JLINK_WriteReg(MSP, 0x20002000)  returns 0x00 (0000ms, 0250ms total)
T41BC 000:331 JLINK_WriteReg(PSP, 0x20002000)  returns 0x00 (0000ms, 0250ms total)
T41BC 000:331 JLINK_WriteReg(CFBP, 0x00000000)  returns 0x00 (0000ms, 0250ms total)
T41BC 000:331 JLINK_SetBPEx(Addr = 0x20000000, Type = 0xFFFFFFF2)  returns 0x00000002 (0000ms, 0250ms total)
T41BC 000:331 JLINK_Go() -- CPU_ReadMem(4 bytes @ 0xE0001000) -- CPU_WriteMem(4 bytes @ 0xE0001000) (0004ms, 0254ms total)
T41BC 000:336 JLINK_IsHalted() -- CPU_ReadMem(2 bytes @ 0x20000000)  returns TRUE (0007ms, 0262ms total)
T41BC 000:343 JLINK_ReadReg(R15 (PC))  returns 0x20000000 (0000ms, 0255ms total)
T41BC 000:343 JLINK_ClrBPEx(BPHandle = 0x00000002)  returns 0x00 (0000ms, 0255ms total)
T41BC 000:343 JLINK_ReadReg(R0)  returns 0x00000000 (0000ms, 0255ms total)
T41BC 000:343 JLINK_WriteReg(R0, 0x0001B400)  returns 0x00 (0000ms, 0255ms total)
T41BC 000:343 JLINK_WriteReg(R1, 0x00000400)  returns 0x00 (0000ms, 0255ms total)
T41BC 000:343 JLINK_WriteReg(R2, 0x000000FF)  returns 0x00 (0001ms, 0256ms total)
T41BC 000:344 JLINK_WriteReg(R3, 0x00000000)  returns 0x00 (0000ms, 0256ms total)
T41BC 000:344 JLINK_WriteReg(R4, 0x00000000)  returns 0x00 (0000ms, 0256ms total)
T41BC 000:344 JLINK_WriteReg(R5, 0x00000000)  returns 0x00 (0000ms, 0256ms total)
T41BC 000:344 JLINK_WriteReg(R6, 0x00000000)  returns 0x00 (0000ms, 0256ms total)
T41BC 000:344 JLINK_WriteReg(R7, 0x00000000)  returns 0x00 (0000ms, 0256ms total)
T41BC 000:344 JLINK_WriteReg(R8, 0x00000000)  returns 0x00 (0000ms, 0256ms total)
T41BC 000:344 JLINK_WriteReg(R9, 0x20000474)  returns 0x00 (0000ms, 0256ms total)
T41BC 000:344 JLINK_WriteReg(R10, 0x00000000)  returns 0x00 (0000ms, 0256ms total)
T41BC 000:344 JLINK_WriteReg(R11, 0x00000000)  returns 0x00 (0000ms, 0256ms total)
T41BC 000:344 JLINK_WriteReg(R12, 0x00000000)  returns 0x00 (0000ms, 0256ms total)
T41BC 000:344 JLINK_WriteReg(R13 (SP), 0x20002000)  returns 0x00 (0000ms, 0256ms total)
T41BC 000:344 JLINK_WriteReg(R14, 0x20000001)  returns 0x00 (0000ms, 0256ms total)
T41BC 000:344 JLINK_WriteReg(R15 (PC), 0x20000188)  returns 0x00 (0000ms, 0256ms total)
T41BC 000:344 JLINK_WriteReg(XPSR, 0x01000000)  returns 0x00 (0000ms, 0256ms total)
T41BC 000:344 JLINK_WriteReg(MSP, 0x20002000)  returns 0x00 (0000ms, 0256ms total)
T41BC 000:344 JLINK_WriteReg(PSP, 0x20002000)  returns 0x00 (0000ms, 0256ms total)
T41BC 000:344 JLINK_WriteReg(CFBP, 0x00000000)  returns 0x00 (0000ms, 0256ms total)
T41BC 000:344 JLINK_SetBPEx(Addr = 0x20000000, Type = 0xFFFFFFF2)  returns 0x00000003 (0000ms, 0256ms total)
T41BC 000:344 JLINK_Go() -- CPU_ReadMem(4 bytes @ 0xE0001000) -- CPU_WriteMem(4 bytes @ 0xE0001000) (0004ms, 0260ms total)
T41BC 000:348 JLINK_IsHalted() -- CPU_ReadMem(2 bytes @ 0x20000000)  returns TRUE (0007ms, 0267ms total)
T41BC 000:355 JLINK_ReadReg(R15 (PC))  returns 0x20000000 (0000ms, 0260ms total)
T41BC 000:355 JLINK_ClrBPEx(BPHandle = 0x00000003)  returns 0x00 (0000ms, 0260ms total)
T41BC 000:355 JLINK_ReadReg(R0)  returns 0x00000000 (0000ms, 0260ms total)
T41BC 000:355 JLINK_WriteReg(R0, 0x0001B800)  returns 0x00 (0000ms, 0260ms total)
T41BC 000:355 JLINK_WriteReg(R1, 0x00000400)  returns 0x00 (0000ms, 0260ms total)
T41BC 000:355 JLINK_WriteReg(R2, 0x000000FF)  returns 0x00 (0000ms, 0260ms total)
T41BC 000:356 JLINK_WriteReg(R3, 0x00000000)  returns 0x00 (0000ms, 0261ms total)
T41BC 000:356 JLINK_WriteReg(R4, 0x00000000)  returns 0x00 (0000ms, 0261ms total)
T41BC 000:356 JLINK_WriteReg(R5, 0x00000000)  returns 0x00 (0000ms, 0261ms total)
T41BC 000:356 JLINK_WriteReg(R6, 0x00000000)  returns 0x00 (0000ms, 0261ms total)
T41BC 000:356 JLINK_WriteReg(R7, 0x00000000)  returns 0x00 (0000ms, 0261ms total)
T41BC 000:356 JLINK_WriteReg(R8, 0x00000000)  returns 0x00 (0000ms, 0261ms total)
T41BC 000:356 JLINK_WriteReg(R9, 0x20000474)  returns 0x00 (0000ms, 0261ms total)
T41BC 000:356 JLINK_WriteReg(R10, 0x00000000)  returns 0x00 (0000ms, 0261ms total)
T41BC 000:356 JLINK_WriteReg(R11, 0x00000000)  returns 0x00 (0000ms, 0261ms total)
T41BC 000:356 JLINK_WriteReg(R12, 0x00000000)  returns 0x00 (0000ms, 0261ms total)
T41BC 000:356 JLINK_WriteReg(R13 (SP), 0x20002000)  returns 0x00 (0000ms, 0261ms total)
T41BC 000:356 JLINK_WriteReg(R14, 0x20000001)  returns 0x00 (0000ms, 0261ms total)
T41BC 000:356 JLINK_WriteReg(R15 (PC), 0x20000188)  returns 0x00 (0000ms, 0261ms total)
T41BC 000:356 JLINK_WriteReg(XPSR, 0x01000000)  returns 0x00 (0000ms, 0261ms total)
T41BC 000:356 JLINK_WriteReg(MSP, 0x20002000)  returns 0x00 (0000ms, 0261ms total)
T41BC 000:356 JLINK_WriteReg(PSP, 0x20002000)  returns 0x00 (0000ms, 0261ms total)
T41BC 000:356 JLINK_WriteReg(CFBP, 0x00000000)  returns 0x00 (0000ms, 0261ms total)
T41BC 000:356 JLINK_SetBPEx(Addr = 0x20000000, Type = 0xFFFFFFF2)  returns 0x00000004 (0000ms, 0261ms total)
T41BC 000:356 JLINK_Go() -- CPU_ReadMem(4 bytes @ 0xE0001000) -- CPU_WriteMem(4 bytes @ 0xE0001000) (0004ms, 0265ms total)
T41BC 000:360 JLINK_IsHalted() -- CPU_ReadMem(2 bytes @ 0x20000000)  returns TRUE (0007ms, 0272ms total)
T41BC 000:367 JLINK_ReadReg(R15 (PC))  returns 0x20000000 (0000ms, 0265ms total)
T41BC 000:367 JLINK_ClrBPEx(BPHandle = 0x00000004)  returns 0x00 (0000ms, 0265ms total)
T41BC 000:367 JLINK_ReadReg(R0)  returns 0x00000000 (0000ms, 0265ms total)
T41BC 000:367 JLINK_WriteReg(R0, 0x0001BC00)  returns 0x00 (0000ms, 0265ms total)
T41BC 000:367 JLINK_WriteReg(R1, 0x00000400)  returns 0x00 (0000ms, 0265ms total)
T41BC 000:367 JLINK_WriteReg(R2, 0x000000FF)  returns 0x00 (0000ms, 0265ms total)
T41BC 000:367 JLINK_WriteReg(R3, 0x00000000)  returns 0x00 (0000ms, 0265ms total)
T41BC 000:367 JLINK_WriteReg(R4, 0x00000000)  returns 0x00 (0000ms, 0265ms total)
T41BC 000:367 JLINK_WriteReg(R5, 0x00000000)  returns 0x00 (0000ms, 0265ms total)
T41BC 000:367 JLINK_WriteReg(R6, 0x00000000)  returns 0x00 (0000ms, 0265ms total)
T41BC 000:367 JLINK_WriteReg(R7, 0x00000000)  returns 0x00 (0000ms, 0265ms total)
T41BC 000:367 JLINK_WriteReg(R8, 0x00000000)  returns 0x00 (0000ms, 0265ms total)
T41BC 000:367 JLINK_WriteReg(R9, 0x20000474)  returns 0x00 (0000ms, 0265ms total)
T41BC 000:367 JLINK_WriteReg(R10, 0x00000000)  returns 0x00 (0000ms, 0265ms total)
T41BC 000:367 JLINK_WriteReg(R11, 0x00000000)  returns 0x00 (0000ms, 0265ms total)
T41BC 000:367 JLINK_WriteReg(R12, 0x00000000)  returns 0x00 (0000ms, 0265ms total)
T41BC 000:367 JLINK_WriteReg(R13 (SP), 0x20002000)  returns 0x00 (0000ms, 0265ms total)
T41BC 000:367 JLINK_WriteReg(R14, 0x20000001)  returns 0x00 (0001ms, 0266ms total)
T41BC 000:368 JLINK_WriteReg(R15 (PC), 0x20000188)  returns 0x00 (0000ms, 0266ms total)
T41BC 000:368 JLINK_WriteReg(XPSR, 0x01000000)  returns 0x00 (0000ms, 0266ms total)
T41BC 000:368 JLINK_WriteReg(MSP, 0x20002000)  returns 0x00 (0000ms, 0266ms total)
T41BC 000:368 JLINK_WriteReg(PSP, 0x20002000)  returns 0x00 (0000ms, 0266ms total)
T41BC 000:368 JLINK_WriteReg(CFBP, 0x00000000)  returns 0x00 (0000ms, 0266ms total)
T41BC 000:368 JLINK_SetBPEx(Addr = 0x20000000, Type = 0xFFFFFFF2)  returns 0x00000005 (0000ms, 0266ms total)
T41BC 000:368 JLINK_Go() -- CPU_ReadMem(4 bytes @ 0xE0001000) -- CPU_WriteMem(4 bytes @ 0xE0001000) (0004ms, 0270ms total)
T41BC 000:372 JLINK_IsHalted() -- CPU_ReadMem(2 bytes @ 0x20000000)  returns TRUE (0007ms, 0277ms total)
T41BC 000:379 JLINK_ReadReg(R15 (PC))  returns 0x20000000 (0000ms, 0270ms total)
T41BC 000:379 JLINK_ClrBPEx(BPHandle = 0x00000005)  returns 0x00 (0000ms, 0270ms total)
T41BC 000:379 JLINK_ReadReg(R0)  returns 0x00000000 (0000ms, 0270ms total)
T41BC 000:379 JLINK_WriteReg(R0, 0x0001C000)  returns 0x00 (0000ms, 0270ms total)
T41BC 000:379 JLINK_WriteReg(R1, 0x00000400)  returns 0x00 (0000ms, 0270ms total)
T41BC 000:379 JLINK_WriteReg(R2, 0x000000FF)  returns 0x00 (0000ms, 0270ms total)
T41BC 000:379 JLINK_WriteReg(R3, 0x00000000)  returns 0x00 (0000ms, 0270ms total)
T41BC 000:379 JLINK_WriteReg(R4, 0x00000000)  returns 0x00 (0000ms, 0270ms total)
T41BC 000:379 JLINK_WriteReg(R5, 0x00000000)  returns 0x00 (0000ms, 0270ms total)
T41BC 000:379 JLINK_WriteReg(R6, 0x00000000)  returns 0x00 (0000ms, 0270ms total)
T41BC 000:379 JLINK_WriteReg(R7, 0x00000000)  returns 0x00 (0000ms, 0270ms total)
T41BC 000:379 JLINK_WriteReg(R8, 0x00000000)  returns 0x00 (0000ms, 0270ms total)
T41BC 000:379 JLINK_WriteReg(R9, 0x20000474)  returns 0x00 (0000ms, 0270ms total)
T41BC 000:379 JLINK_WriteReg(R10, 0x00000000)  returns 0x00 (0000ms, 0270ms total)
T41BC 000:379 JLINK_WriteReg(R11, 0x00000000)  returns 0x00 (0001ms, 0271ms total)
T41BC 000:380 JLINK_WriteReg(R12, 0x00000000)  returns 0x00 (0000ms, 0271ms total)
T41BC 000:380 JLINK_WriteReg(R13 (SP), 0x20002000)  returns 0x00 (0000ms, 0271ms total)
T41BC 000:380 JLINK_WriteReg(R14, 0x20000001)  returns 0x00 (0000ms, 0271ms total)
T41BC 000:380 JLINK_WriteReg(R15 (PC), 0x20000188)  returns 0x00 (0000ms, 0271ms total)
T41BC 000:380 JLINK_WriteReg(XPSR, 0x01000000)  returns 0x00 (0000ms, 0271ms total)
T41BC 000:380 JLINK_WriteReg(MSP, 0x20002000)  returns 0x00 (0000ms, 0271ms total)
T41BC 000:380 JLINK_WriteReg(PSP, 0x20002000)  returns 0x00 (0000ms, 0271ms total)
T41BC 000:380 JLINK_WriteReg(CFBP, 0x00000000)  returns 0x00 (0000ms, 0271ms total)
T41BC 000:380 JLINK_SetBPEx(Addr = 0x20000000, Type = 0xFFFFFFF2)  returns 0x00000006 (0000ms, 0271ms total)
T41BC 000:380 JLINK_Go() -- CPU_ReadMem(4 bytes @ 0xE0001000) -- CPU_WriteMem(4 bytes @ 0xE0001000) (0004ms, 0275ms total)
T41BC 000:384 JLINK_IsHalted() -- CPU_ReadMem(2 bytes @ 0x20000000)  returns TRUE (0007ms, 0282ms total)
T41BC 000:391 JLINK_ReadReg(R15 (PC))  returns 0x20000000 (0000ms, 0275ms total)
T41BC 000:391 JLINK_ClrBPEx(BPHandle = 0x00000006)  returns 0x00 (0000ms, 0275ms total)
T41BC 000:391 JLINK_ReadReg(R0)  returns 0x00000000 (0000ms, 0275ms total)
T41BC 000:391 JLINK_WriteReg(R0, 0x0001C400)  returns 0x00 (0000ms, 0275ms total)
T41BC 000:391 JLINK_WriteReg(R1, 0x00000400)  returns 0x00 (0000ms, 0275ms total)
T41BC 000:391 JLINK_WriteReg(R2, 0x000000FF)  returns 0x00 (0000ms, 0275ms total)
T41BC 000:391 JLINK_WriteReg(R3, 0x00000000)  returns 0x00 (0000ms, 0275ms total)
T41BC 000:391 JLINK_WriteReg(R4, 0x00000000)  returns 0x00 (0000ms, 0275ms total)
T41BC 000:391 JLINK_WriteReg(R5, 0x00000000)  returns 0x00 (0000ms, 0275ms total)
T41BC 000:391 JLINK_WriteReg(R6, 0x00000000)  returns 0x00 (0000ms, 0275ms total)
T41BC 000:391 JLINK_WriteReg(R7, 0x00000000)  returns 0x00 (0000ms, 0275ms total)
T41BC 000:391 JLINK_WriteReg(R8, 0x00000000)  returns 0x00 (0000ms, 0275ms total)
T41BC 000:391 JLINK_WriteReg(R9, 0x20000474)  returns 0x00 (0000ms, 0275ms total)
T41BC 000:391 JLINK_WriteReg(R10, 0x00000000)  returns 0x00 (0000ms, 0275ms total)
T41BC 000:391 JLINK_WriteReg(R11, 0x00000000)  returns 0x00 (0000ms, 0275ms total)
T41BC 000:391 JLINK_WriteReg(R12, 0x00000000)  returns 0x00 (0000ms, 0275ms total)
T41BC 000:391 JLINK_WriteReg(R13 (SP), 0x20002000)  returns 0x00 (0000ms, 0275ms total)
T41BC 000:391 JLINK_WriteReg(R14, 0x20000001)  returns 0x00 (0000ms, 0275ms total)
T41BC 000:391 JLINK_WriteReg(R15 (PC), 0x20000188)  returns 0x00 (0000ms, 0275ms total)
T41BC 000:391 JLINK_WriteReg(XPSR, 0x01000000)  returns 0x00 (0001ms, 0276ms total)
T41BC 000:392 JLINK_WriteReg(MSP, 0x20002000)  returns 0x00 (0000ms, 0276ms total)
T41BC 000:392 JLINK_WriteReg(PSP, 0x20002000)  returns 0x00 (0000ms, 0276ms total)
T41BC 000:392 JLINK_WriteReg(CFBP, 0x00000000)  returns 0x00 (0000ms, 0276ms total)
T41BC 000:392 JLINK_SetBPEx(Addr = 0x20000000, Type = 0xFFFFFFF2)  returns 0x00000007 (0000ms, 0276ms total)
T41BC 000:392 JLINK_Go() -- CPU_ReadMem(4 bytes @ 0xE0001000) -- CPU_WriteMem(4 bytes @ 0xE0001000) (0004ms, 0280ms total)
T41BC 000:396 JLINK_IsHalted() -- CPU_ReadMem(2 bytes @ 0x20000000)  returns TRUE (0007ms, 0287ms total)
T41BC 000:403 JLINK_ReadReg(R15 (PC))  returns 0x20000000 (0000ms, 0280ms total)
T41BC 000:403 JLINK_ClrBPEx(BPHandle = 0x00000007)  returns 0x00 (0000ms, 0280ms total)
T41BC 000:403 JLINK_ReadReg(R0)  returns 0x00000000 (0000ms, 0280ms total)
T41BC 000:404 JLINK_WriteReg(R0, 0x0001C800)  returns 0x00 (0000ms, 0280ms total)
T41BC 000:404 JLINK_WriteReg(R1, 0x00000400)  returns 0x00 (0000ms, 0280ms total)
T41BC 000:404 JLINK_WriteReg(R2, 0x000000FF)  returns 0x00 (0000ms, 0280ms total)
T41BC 000:404 JLINK_WriteReg(R3, 0x00000000)  returns 0x00 (0000ms, 0280ms total)
T41BC 000:404 JLINK_WriteReg(R4, 0x00000000)  returns 0x00 (0000ms, 0280ms total)
T41BC 000:404 JLINK_WriteReg(R5, 0x00000000)  returns 0x00 (0000ms, 0280ms total)
T41BC 000:404 JLINK_WriteReg(R6, 0x00000000)  returns 0x00 (0000ms, 0280ms total)
T41BC 000:404 JLINK_WriteReg(R7, 0x00000000)  returns 0x00 (0000ms, 0280ms total)
T41BC 000:404 JLINK_WriteReg(R8, 0x00000000)  returns 0x00 (0000ms, 0280ms total)
T41BC 000:404 JLINK_WriteReg(R9, 0x20000474)  returns 0x00 (0000ms, 0280ms total)
T41BC 000:404 JLINK_WriteReg(R10, 0x00000000)  returns 0x00 (0000ms, 0280ms total)
T41BC 000:404 JLINK_WriteReg(R11, 0x00000000)  returns 0x00 (0000ms, 0280ms total)
T41BC 000:404 JLINK_WriteReg(R12, 0x00000000)  returns 0x00 (0000ms, 0280ms total)
T41BC 000:404 JLINK_WriteReg(R13 (SP), 0x20002000)  returns 0x00 (0000ms, 0280ms total)
T41BC 000:404 JLINK_WriteReg(R14, 0x20000001)  returns 0x00 (0000ms, 0280ms total)
T41BC 000:404 JLINK_WriteReg(R15 (PC), 0x20000188)  returns 0x00 (0000ms, 0280ms total)
T41BC 000:404 JLINK_WriteReg(XPSR, 0x01000000)  returns 0x00 (0000ms, 0280ms total)
T41BC 000:404 JLINK_WriteReg(MSP, 0x20002000)  returns 0x00 (0000ms, 0280ms total)
T41BC 000:404 JLINK_WriteReg(PSP, 0x20002000)  returns 0x00 (0000ms, 0280ms total)
T41BC 000:404 JLINK_WriteReg(CFBP, 0x00000000)  returns 0x00 (0000ms, 0280ms total)
T41BC 000:404 JLINK_SetBPEx(Addr = 0x20000000, Type = 0xFFFFFFF2)  returns 0x00000008 (0000ms, 0280ms total)
T41BC 000:404 JLINK_Go() -- CPU_ReadMem(4 bytes @ 0xE0001000) -- CPU_WriteMem(4 bytes @ 0xE0001000) (0004ms, 0284ms total)
T41BC 000:408 JLINK_IsHalted() -- CPU_ReadMem(2 bytes @ 0x20000000)  returns TRUE (0007ms, 0291ms total)
T41BC 000:416 JLINK_ReadReg(R15 (PC))  returns 0x20000000 (0000ms, 0284ms total)
T41BC 000:416 JLINK_ClrBPEx(BPHandle = 0x00000008)  returns 0x00 (0000ms, 0284ms total)
T41BC 000:416 JLINK_ReadReg(R0)  returns 0x00000000 (0000ms, 0284ms total)
T41BC 000:416 JLINK_WriteReg(R0, 0x0001CC00)  returns 0x00 (0000ms, 0284ms total)
T41BC 000:416 JLINK_WriteReg(R1, 0x00000400)  returns 0x00 (0000ms, 0284ms total)
T41BC 000:416 JLINK_WriteReg(R2, 0x000000FF)  returns 0x00 (0000ms, 0284ms total)
T41BC 000:416 JLINK_WriteReg(R3, 0x00000000)  returns 0x00 (0000ms, 0284ms total)
T41BC 000:416 JLINK_WriteReg(R4, 0x00000000)  returns 0x00 (0000ms, 0284ms total)
T41BC 000:416 JLINK_WriteReg(R5, 0x00000000)  returns 0x00 (0000ms, 0284ms total)
T41BC 000:416 JLINK_WriteReg(R6, 0x00000000)  returns 0x00 (0000ms, 0284ms total)
T41BC 000:416 JLINK_WriteReg(R7, 0x00000000)  returns 0x00 (0000ms, 0284ms total)
T41BC 000:416 JLINK_WriteReg(R8, 0x00000000)  returns 0x00 (0000ms, 0284ms total)
T41BC 000:416 JLINK_WriteReg(R9, 0x20000474)  returns 0x00 (0000ms, 0284ms total)
T41BC 000:416 JLINK_WriteReg(R10, 0x00000000)  returns 0x00 (0000ms, 0284ms total)
T41BC 000:416 JLINK_WriteReg(R11, 0x00000000)  returns 0x00 (0000ms, 0284ms total)
T41BC 000:416 JLINK_WriteReg(R12, 0x00000000)  returns 0x00 (0000ms, 0284ms total)
T41BC 000:416 JLINK_WriteReg(R13 (SP), 0x20002000)  returns 0x00 (0000ms, 0284ms total)
T41BC 000:416 JLINK_WriteReg(R14, 0x20000001)  returns 0x00 (0001ms, 0285ms total)
T41BC 000:417 JLINK_WriteReg(R15 (PC), 0x20000188)  returns 0x00 (0000ms, 0285ms total)
T41BC 000:417 JLINK_WriteReg(XPSR, 0x01000000)  returns 0x00 (0000ms, 0285ms total)
T41BC 000:417 JLINK_WriteReg(MSP, 0x20002000)  returns 0x00 (0000ms, 0285ms total)
T41BC 000:417 JLINK_WriteReg(PSP, 0x20002000)  returns 0x00 (0000ms, 0285ms total)
T41BC 000:417 JLINK_WriteReg(CFBP, 0x00000000)  returns 0x00 (0000ms, 0285ms total)
T41BC 000:417 JLINK_SetBPEx(Addr = 0x20000000, Type = 0xFFFFFFF2)  returns 0x00000009 (0000ms, 0285ms total)
T41BC 000:417 JLINK_Go() -- CPU_ReadMem(4 bytes @ 0xE0001000) -- CPU_WriteMem(4 bytes @ 0xE0001000) (0004ms, 0289ms total)
T41BC 000:421 JLINK_IsHalted() -- CPU_ReadMem(2 bytes @ 0x20000000)  returns TRUE (0007ms, 0296ms total)
T41BC 000:428 JLINK_ReadReg(R15 (PC))  returns 0x20000000 (0000ms, 0289ms total)
T41BC 000:428 JLINK_ClrBPEx(BPHandle = 0x00000009)  returns 0x00 (0000ms, 0289ms total)
T41BC 000:428 JLINK_ReadReg(R0)  returns 0x00000000 (0000ms, 0289ms total)
T41BC 000:429 JLINK_WriteReg(R0, 0x0001D000)  returns 0x00 (0000ms, 0289ms total)
T41BC 000:429 JLINK_WriteReg(R1, 0x00000400)  returns 0x00 (0000ms, 0289ms total)
T41BC 000:429 JLINK_WriteReg(R2, 0x000000FF)  returns 0x00 (0000ms, 0289ms total)
T41BC 000:429 JLINK_WriteReg(R3, 0x00000000)  returns 0x00 (0000ms, 0289ms total)
T41BC 000:429 JLINK_WriteReg(R4, 0x00000000)  returns 0x00 (0000ms, 0289ms total)
T41BC 000:429 JLINK_WriteReg(R5, 0x00000000)  returns 0x00 (0000ms, 0289ms total)
T41BC 000:429 JLINK_WriteReg(R6, 0x00000000)  returns 0x00 (0000ms, 0289ms total)
T41BC 000:429 JLINK_WriteReg(R7, 0x00000000)  returns 0x00 (0000ms, 0289ms total)
T41BC 000:429 JLINK_WriteReg(R8, 0x00000000)  returns 0x00 (0000ms, 0289ms total)
T41BC 000:429 JLINK_WriteReg(R9, 0x20000474)  returns 0x00 (0000ms, 0289ms total)
T41BC 000:429 JLINK_WriteReg(R10, 0x00000000)  returns 0x00 (0000ms, 0289ms total)
T41BC 000:429 JLINK_WriteReg(R11, 0x00000000)  returns 0x00 (0000ms, 0289ms total)
T41BC 000:429 JLINK_WriteReg(R12, 0x00000000)  returns 0x00 (0000ms, 0289ms total)
T41BC 000:429 JLINK_WriteReg(R13 (SP), 0x20002000)  returns 0x00 (0000ms, 0289ms total)
T41BC 000:429 JLINK_WriteReg(R14, 0x20000001)  returns 0x00 (0000ms, 0289ms total)
T41BC 000:429 JLINK_WriteReg(R15 (PC), 0x20000188)  returns 0x00 (0000ms, 0289ms total)
T41BC 000:429 JLINK_WriteReg(XPSR, 0x01000000)  returns 0x00 (0000ms, 0289ms total)
T41BC 000:429 JLINK_WriteReg(MSP, 0x20002000)  returns 0x00 (0000ms, 0289ms total)
T41BC 000:429 JLINK_WriteReg(PSP, 0x20002000)  returns 0x00 (0000ms, 0289ms total)
T41BC 000:429 JLINK_WriteReg(CFBP, 0x00000000)  returns 0x00 (0000ms, 0289ms total)
T41BC 000:429 JLINK_SetBPEx(Addr = 0x20000000, Type = 0xFFFFFFF2)  returns 0x0000000A (0000ms, 0289ms total)
T41BC 000:429 JLINK_Go() -- CPU_ReadMem(4 bytes @ 0xE0001000) -- CPU_WriteMem(4 bytes @ 0xE0001000) (0005ms, 0294ms total)
T41BC 000:434 JLINK_IsHalted() -- CPU_ReadMem(2 bytes @ 0x20000000)  returns TRUE (0007ms, 0301ms total)
T41BC 000:441 JLINK_ReadReg(R15 (PC))  returns 0x20000000 (0000ms, 0294ms total)
T41BC 000:441 JLINK_ClrBPEx(BPHandle = 0x0000000A)  returns 0x00 (0000ms, 0294ms total)
T41BC 000:441 JLINK_ReadReg(R0)  returns 0x00000000 (0000ms, 0294ms total)
T41BC 000:441 JLINK_WriteReg(R0, 0x0001D400)  returns 0x00 (0000ms, 0294ms total)
T41BC 000:441 JLINK_WriteReg(R1, 0x00000400)  returns 0x00 (0000ms, 0294ms total)
T41BC 000:441 JLINK_WriteReg(R2, 0x000000FF)  returns 0x00 (0000ms, 0294ms total)
T41BC 000:441 JLINK_WriteReg(R3, 0x00000000)  returns 0x00 (0000ms, 0294ms total)
T41BC 000:442 JLINK_WriteReg(R4, 0x00000000)  returns 0x00 (0000ms, 0295ms total)
T41BC 000:442 JLINK_WriteReg(R5, 0x00000000)  returns 0x00 (0000ms, 0295ms total)
T41BC 000:442 JLINK_WriteReg(R6, 0x00000000)  returns 0x00 (0000ms, 0295ms total)
T41BC 000:442 JLINK_WriteReg(R7, 0x00000000)  returns 0x00 (0000ms, 0295ms total)
T41BC 000:442 JLINK_WriteReg(R8, 0x00000000)  returns 0x00 (0000ms, 0295ms total)
T41BC 000:442 JLINK_WriteReg(R9, 0x20000474)  returns 0x00 (0000ms, 0295ms total)
T41BC 000:442 JLINK_WriteReg(R10, 0x00000000)  returns 0x00 (0000ms, 0295ms total)
T41BC 000:442 JLINK_WriteReg(R11, 0x00000000)  returns 0x00 (0000ms, 0295ms total)
T41BC 000:442 JLINK_WriteReg(R12, 0x00000000)  returns 0x00 (0000ms, 0295ms total)
T41BC 000:442 JLINK_WriteReg(R13 (SP), 0x20002000)  returns 0x00 (0000ms, 0295ms total)
T41BC 000:442 JLINK_WriteReg(R14, 0x20000001)  returns 0x00 (0000ms, 0295ms total)
T41BC 000:442 JLINK_WriteReg(R15 (PC), 0x20000188)  returns 0x00 (0000ms, 0295ms total)
T41BC 000:442 JLINK_WriteReg(XPSR, 0x01000000)  returns 0x00 (0000ms, 0295ms total)
T41BC 000:442 JLINK_WriteReg(MSP, 0x20002000)  returns 0x00 (0000ms, 0295ms total)
T41BC 000:442 JLINK_WriteReg(PSP, 0x20002000)  returns 0x00 (0000ms, 0295ms total)
T41BC 000:442 JLINK_WriteReg(CFBP, 0x00000000)  returns 0x00 (0000ms, 0295ms total)
T41BC 000:442 JLINK_SetBPEx(Addr = 0x20000000, Type = 0xFFFFFFF2)  returns 0x0000000B (0000ms, 0295ms total)
T41BC 000:442 JLINK_Go() -- CPU_ReadMem(4 bytes @ 0xE0001000) -- CPU_WriteMem(4 bytes @ 0xE0001000) (0004ms, 0299ms total)
T41BC 000:446 JLINK_IsHalted() -- CPU_ReadMem(2 bytes @ 0x20000000)  returns TRUE (0007ms, 0306ms total)
T41BC 000:453 JLINK_ReadReg(R15 (PC))  returns 0x20000000 (0000ms, 0299ms total)
T41BC 000:453 JLINK_ClrBPEx(BPHandle = 0x0000000B)  returns 0x00 (0000ms, 0299ms total)
T41BC 000:453 JLINK_ReadReg(R0)  returns 0x00000000 (0000ms, 0299ms total)
T41BC 000:454 JLINK_WriteReg(R0, 0x0001D800)  returns 0x00 (0000ms, 0299ms total)
T41BC 000:454 JLINK_WriteReg(R1, 0x00000400)  returns 0x00 (0000ms, 0299ms total)
T41BC 000:454 JLINK_WriteReg(R2, 0x000000FF)  returns 0x00 (0000ms, 0299ms total)
T41BC 000:454 JLINK_WriteReg(R3, 0x00000000)  returns 0x00 (0000ms, 0299ms total)
T41BC 000:454 JLINK_WriteReg(R4, 0x00000000)  returns 0x00 (0000ms, 0299ms total)
T41BC 000:454 JLINK_WriteReg(R5, 0x00000000)  returns 0x00 (0000ms, 0299ms total)
T41BC 000:454 JLINK_WriteReg(R6, 0x00000000)  returns 0x00 (0000ms, 0299ms total)
T41BC 000:454 JLINK_WriteReg(R7, 0x00000000)  returns 0x00 (0000ms, 0299ms total)
T41BC 000:454 JLINK_WriteReg(R8, 0x00000000)  returns 0x00 (0000ms, 0299ms total)
T41BC 000:454 JLINK_WriteReg(R9, 0x20000474)  returns 0x00 (0000ms, 0299ms total)
T41BC 000:454 JLINK_WriteReg(R10, 0x00000000)  returns 0x00 (0000ms, 0299ms total)
T41BC 000:454 JLINK_WriteReg(R11, 0x00000000)  returns 0x00 (0000ms, 0299ms total)
T41BC 000:454 JLINK_WriteReg(R12, 0x00000000)  returns 0x00 (0000ms, 0299ms total)
T41BC 000:454 JLINK_WriteReg(R13 (SP), 0x20002000)  returns 0x00 (0000ms, 0299ms total)
T41BC 000:454 JLINK_WriteReg(R14, 0x20000001)  returns 0x00 (0000ms, 0299ms total)
T41BC 000:454 JLINK_WriteReg(R15 (PC), 0x20000188)  returns 0x00 (0000ms, 0299ms total)
T41BC 000:454 JLINK_WriteReg(XPSR, 0x01000000)  returns 0x00 (0000ms, 0299ms total)
T41BC 000:454 JLINK_WriteReg(MSP, 0x20002000)  returns 0x00 (0000ms, 0299ms total)
T41BC 000:455 JLINK_WriteReg(PSP, 0x20002000)  returns 0x00 (0000ms, 0299ms total)
T41BC 000:455 JLINK_WriteReg(CFBP, 0x00000000)  returns 0x00 (0000ms, 0299ms total)
T41BC 000:455 JLINK_SetBPEx(Addr = 0x20000000, Type = 0xFFFFFFF2)  returns 0x0000000C (0000ms, 0299ms total)
T41BC 000:455 JLINK_Go() -- CPU_ReadMem(4 bytes @ 0xE0001000) -- CPU_WriteMem(4 bytes @ 0xE0001000) (0004ms, 0303ms total)
T41BC 000:459 JLINK_IsHalted() -- CPU_ReadMem(2 bytes @ 0x20000000)  returns TRUE (0007ms, 0310ms total)
T41BC 000:466 JLINK_ReadReg(R15 (PC))  returns 0x20000000 (0000ms, 0303ms total)
T41BC 000:466 JLINK_ClrBPEx(BPHandle = 0x0000000C)  returns 0x00 (0000ms, 0303ms total)
T41BC 000:467 JLINK_ReadReg(R0)  returns 0x00000000 (0000ms, 0304ms total)
T41BC 000:467 JLINK_WriteReg(R0, 0x00000001)  returns 0x00 (0000ms, 0304ms total)
T41BC 000:467 JLINK_WriteReg(R1, 0x00000400)  returns 0x00 (0000ms, 0304ms total)
T41BC 000:467 JLINK_WriteReg(R2, 0x000000FF)  returns 0x00 (0000ms, 0304ms total)
T41BC 000:467 JLINK_WriteReg(R3, 0x00000000)  returns 0x00 (0000ms, 0304ms total)
T41BC 000:467 JLINK_WriteReg(R4, 0x00000000)  returns 0x00 (0000ms, 0304ms total)
T41BC 000:467 JLINK_WriteReg(R5, 0x00000000)  returns 0x00 (0000ms, 0304ms total)
T41BC 000:467 JLINK_WriteReg(R6, 0x00000000)  returns 0x00 (0000ms, 0304ms total)
T41BC 000:467 JLINK_WriteReg(R7, 0x00000000)  returns 0x00 (0000ms, 0304ms total)
T41BC 000:467 JLINK_WriteReg(R8, 0x00000000)  returns 0x00 (0000ms, 0304ms total)
T41BC 000:467 JLINK_WriteReg(R9, 0x20000474)  returns 0x00 (0000ms, 0304ms total)
T41BC 000:467 JLINK_WriteReg(R10, 0x00000000)  returns 0x00 (0000ms, 0304ms total)
T41BC 000:467 JLINK_WriteReg(R11, 0x00000000)  returns 0x00 (0000ms, 0304ms total)
T41BC 000:467 JLINK_WriteReg(R12, 0x00000000)  returns 0x00 (0000ms, 0304ms total)
T41BC 000:467 JLINK_WriteReg(R13 (SP), 0x20002000)  returns 0x00 (0000ms, 0304ms total)
T41BC 000:467 JLINK_WriteReg(R14, 0x20000001)  returns 0x00 (0000ms, 0304ms total)
T41BC 000:467 JLINK_WriteReg(R15 (PC), 0x20000058)  returns 0x00 (0001ms, 0305ms total)
T41BC 000:468 JLINK_WriteReg(XPSR, 0x01000000)  returns 0x00 (0000ms, 0305ms total)
T41BC 000:468 JLINK_WriteReg(MSP, 0x20002000)  returns 0x00 (0000ms, 0305ms total)
T41BC 000:468 JLINK_WriteReg(PSP, 0x20002000)  returns 0x00 (0000ms, 0305ms total)
T41BC 000:468 JLINK_WriteReg(CFBP, 0x00000000)  returns 0x00 (0000ms, 0305ms total)
T41BC 000:468 JLINK_SetBPEx(Addr = 0x20000000, Type = 0xFFFFFFF2)  returns 0x0000000D (0000ms, 0305ms total)
T41BC 000:468 JLINK_Go() -- CPU_ReadMem(4 bytes @ 0xE0001000) -- CPU_WriteMem(4 bytes @ 0xE0001000) (0004ms, 0309ms total)
T41BC 000:472 JLINK_IsHalted() -- CPU_ReadMem(2 bytes @ 0x20000000)  returns TRUE (0008ms, 0317ms total)
T41BC 000:480 JLINK_ReadReg(R15 (PC))  returns 0x20000000 (0000ms, 0309ms total)
T41BC 000:480 JLINK_ClrBPEx(BPHandle = 0x0000000D)  returns 0x00 (0000ms, 0309ms total)
T41BC 000:480 JLINK_ReadReg(R0)  returns 0x00000000 (0000ms, 0309ms total)
T41BC 000:541 JLINK_WriteMem(0x20000000, 0x0478 Bytes, ...) - Data: 00 BE 0A E0 0D 78 2D 06 68 40 08 24 40 00 00 D3 ... -- CPU_WriteMem(1144 bytes @ 0x20000000)  returns 0x478 (0016ms, 0325ms total)
T41BC 000:557 JLINK_WriteReg(R0, 0x00000000)  returns 0x00 (0000ms, 0325ms total)
T41BC 000:557 JLINK_WriteReg(R1, 0x00F42400)  returns 0x00 (0000ms, 0325ms total)
T41BC 000:557 JLINK_WriteReg(R2, 0x00000002)  returns 0x00 (0001ms, 0326ms total)
T41BC 000:558 JLINK_WriteReg(R3, 0x00000000)  returns 0x00 (0000ms, 0326ms total)
T41BC 000:558 JLINK_WriteReg(R4, 0x00000000)  returns 0x00 (0000ms, 0326ms total)
T41BC 000:558 JLINK_WriteReg(R5, 0x00000000)  returns 0x00 (0000ms, 0326ms total)
T41BC 000:558 JLINK_WriteReg(R6, 0x00000000)  returns 0x00 (0000ms, 0326ms total)
T41BC 000:558 JLINK_WriteReg(R7, 0x00000000)  returns 0x00 (0000ms, 0326ms total)
T41BC 000:558 JLINK_WriteReg(R8, 0x00000000)  returns 0x00 (0000ms, 0326ms total)
T41BC 000:558 JLINK_WriteReg(R9, 0x20000474)  returns 0x00 (0000ms, 0326ms total)
T41BC 000:558 JLINK_WriteReg(R10, 0x00000000)  returns 0x00 (0000ms, 0326ms total)
T41BC 000:558 JLINK_WriteReg(R11, 0x00000000)  returns 0x00 (0000ms, 0326ms total)
T41BC 000:558 JLINK_WriteReg(R12, 0x00000000)  returns 0x00 (0000ms, 0326ms total)
T41BC 000:558 JLINK_WriteReg(R13 (SP), 0x20002000)  returns 0x00 (0000ms, 0326ms total)
T41BC 000:558 JLINK_WriteReg(R14, 0x20000001)  returns 0x00 (0000ms, 0326ms total)
T41BC 000:558 JLINK_WriteReg(R15 (PC), 0x20000028)  returns 0x00 (0000ms, 0326ms total)
T41BC 000:558 JLINK_WriteReg(XPSR, 0x01000000)  returns 0x00 (0000ms, 0326ms total)
T41BC 000:558 JLINK_WriteReg(MSP, 0x20002000)  returns 0x00 (0001ms, 0327ms total)
T41BC 000:559 JLINK_WriteReg(PSP, 0x20002000)  returns 0x00 (0000ms, 0327ms total)
T41BC 000:559 JLINK_WriteReg(CFBP, 0x00000000)  returns 0x00 (0000ms, 0327ms total)
T41BC 000:559 JLINK_SetBPEx(Addr = 0x20000000, Type = 0xFFFFFFF2) -- CPU_ReadMem(2 bytes @ 0x20000000)  returns 0x0000000E (0001ms, 0328ms total)
T41BC 000:560 JLINK_Go() -- CPU_WriteMem(2 bytes @ 0x20000000) -- CPU_ReadMem(4 bytes @ 0xE0001000) -- CPU_WriteMem(4 bytes @ 0xE0001000) (0005ms, 0333ms total)
T41BC 000:565 JLINK_IsHalted() -- CPU_ReadMem(2 bytes @ 0x20000000)  returns TRUE (0008ms, 0341ms total)
T41BC 000:573 JLINK_ReadReg(R15 (PC))  returns 0x20000000 (0000ms, 0333ms total)
T41BC 000:573 JLINK_ClrBPEx(BPHandle = 0x0000000E)  returns 0x00 (0000ms, 0333ms total)
T41BC 000:573 JLINK_ReadReg(R0)  returns 0x00000000 (0000ms, 0333ms total)
T41BC 000:573 JLINK_WriteMem(0x20000478, 0x0388 Bytes, ...) - Data: F0 33 00 20 F5 B0 01 00 0F B1 01 00 11 B1 01 00 ... -- CPU_WriteMem(904 bytes @ 0x20000478)  returns 0x388 (0012ms, 0345ms total)
T41BC 000:586 JLINK_WriteMem(0x20000800, 0x0078 Bytes, ...) - Data: 90 43 08 43 18 60 70 47 00 ED 00 E0 00 E4 00 E0 ... -- CPU_WriteMem(120 bytes @ 0x20000800)  returns 0x78 (0002ms, 0348ms total)
T41BC 000:588 JLINK_WriteReg(R0, 0x0001B000)  returns 0x00 (0000ms, 0348ms total)
T41BC 000:588 JLINK_WriteReg(R1, 0x00000400)  returns 0x00 (0000ms, 0348ms total)
T41BC 000:588 JLINK_WriteReg(R2, 0x20000478)  returns 0x00 (0000ms, 0348ms total)
T41BC 000:588 JLINK_WriteReg(R3, 0x00000000)  returns 0x00 (0000ms, 0348ms total)
T41BC 000:588 JLINK_WriteReg(R4, 0x00000000)  returns 0x00 (0000ms, 0348ms total)
T41BC 000:588 JLINK_WriteReg(R5, 0x00000000)  returns 0x00 (0000ms, 0348ms total)
T41BC 000:588 JLINK_WriteReg(R6, 0x00000000)  returns 0x00 (0000ms, 0348ms total)
T41BC 000:588 JLINK_WriteReg(R7, 0x00000000)  returns 0x00 (0000ms, 0348ms total)
T41BC 000:588 JLINK_WriteReg(R8, 0x00000000)  returns 0x00 (0000ms, 0348ms total)
T41BC 000:588 JLINK_WriteReg(R9, 0x20000474)  returns 0x00 (0000ms, 0348ms total)
T41BC 000:588 JLINK_WriteReg(R10, 0x00000000)  returns 0x00 (0000ms, 0348ms total)
T41BC 000:588 JLINK_WriteReg(R11, 0x00000000)  returns 0x00 (0000ms, 0348ms total)
T41BC 000:588 JLINK_WriteReg(R12, 0x00000000)  returns 0x00 (0000ms, 0348ms total)
T41BC 000:588 JLINK_WriteReg(R13 (SP), 0x20002000)  returns 0x00 (0000ms, 0348ms total)
T41BC 000:588 JLINK_WriteReg(R14, 0x20000001)  returns 0x00 (0000ms, 0348ms total)
T41BC 000:588 JLINK_WriteReg(R15 (PC), 0x200001C4)  returns 0x00 (0000ms, 0348ms total)
T41BC 000:588 JLINK_WriteReg(XPSR, 0x01000000)  returns 0x00 (0000ms, 0348ms total)
T41BC 000:588 JLINK_WriteReg(MSP, 0x20002000)  returns 0x00 (0000ms, 0348ms total)
T41BC 000:588 JLINK_WriteReg(PSP, 0x20002000)  returns 0x00 (0000ms, 0348ms total)
T41BC 000:588 JLINK_WriteReg(CFBP, 0x00000000)  returns 0x00 (0000ms, 0348ms total)
T41BC 000:588 JLINK_SetBPEx(Addr = 0x20000000, Type = 0xFFFFFFF2)  returns 0x0000000F (0000ms, 0348ms total)
T41BC 000:588 JLINK_Go() -- CPU_ReadMem(4 bytes @ 0xE0001000) -- CPU_WriteMem(4 bytes @ 0xE0001000) (0005ms, 0353ms total)
T41BC 000:593 JLINK_IsHalted()  returns FALSE (0001ms, 0354ms total)
T41BC 000:609 JLINK_IsHalted() -- CPU_ReadMem(2 bytes @ 0x20000000)  returns TRUE (0007ms, 0360ms total)
T41BC 000:616 JLINK_ReadReg(R15 (PC))  returns 0x20000000 (0000ms, 0353ms total)
T41BC 000:616 JLINK_ClrBPEx(BPHandle = 0x0000000F)  returns 0x00 (0000ms, 0353ms total)
T41BC 000:616 JLINK_ReadReg(R0)  returns 0x00000000 (0000ms, 0353ms total)
T41BC 000:617 JLINK_WriteMem(0x20000478, 0x0388 Bytes, ...) - Data: 78 2B 00 20 FF B5 11 4F 04 46 38 78 81 B0 1D 46 ... -- CPU_WriteMem(904 bytes @ 0x20000478)  returns 0x388 (0012ms, 0365ms total)
T41BC 000:629 JLINK_WriteMem(0x20000800, 0x0078 Bytes, ...) - Data: 69 6E 61 6C 00 00 00 00 68 27 00 20 52 54 54 00 ... -- CPU_WriteMem(120 bytes @ 0x20000800)  returns 0x78 (0003ms, 0368ms total)
T41BC 000:632 JLINK_WriteReg(R0, 0x0001B400)  returns 0x00 (0000ms, 0368ms total)
T41BC 000:632 JLINK_WriteReg(R1, 0x00000400)  returns 0x00 (0000ms, 0368ms total)
T41BC 000:632 JLINK_WriteReg(R2, 0x20000478)  returns 0x00 (0000ms, 0368ms total)
T41BC 000:632 JLINK_WriteReg(R3, 0x00000000)  returns 0x00 (0000ms, 0368ms total)
T41BC 000:632 JLINK_WriteReg(R4, 0x00000000)  returns 0x00 (0000ms, 0368ms total)
T41BC 000:632 JLINK_WriteReg(R5, 0x00000000)  returns 0x00 (0000ms, 0368ms total)
T41BC 000:632 JLINK_WriteReg(R6, 0x00000000)  returns 0x00 (0000ms, 0368ms total)
T41BC 000:632 JLINK_WriteReg(R7, 0x00000000)  returns 0x00 (0000ms, 0368ms total)
T41BC 000:632 JLINK_WriteReg(R8, 0x00000000)  returns 0x00 (0000ms, 0368ms total)
T41BC 000:632 JLINK_WriteReg(R9, 0x20000474)  returns 0x00 (0000ms, 0368ms total)
T41BC 000:632 JLINK_WriteReg(R10, 0x00000000)  returns 0x00 (0000ms, 0368ms total)
T41BC 000:632 JLINK_WriteReg(R11, 0x00000000)  returns 0x00 (0000ms, 0368ms total)
T41BC 000:632 JLINK_WriteReg(R12, 0x00000000)  returns 0x00 (0000ms, 0368ms total)
T41BC 000:632 JLINK_WriteReg(R13 (SP), 0x20002000)  returns 0x00 (0000ms, 0368ms total)
T41BC 000:632 JLINK_WriteReg(R14, 0x20000001)  returns 0x00 (0000ms, 0368ms total)
T41BC 000:632 JLINK_WriteReg(R15 (PC), 0x200001C4)  returns 0x00 (0000ms, 0368ms total)
T41BC 000:632 JLINK_WriteReg(XPSR, 0x01000000)  returns 0x00 (0000ms, 0368ms total)
T41BC 000:632 JLINK_WriteReg(MSP, 0x20002000)  returns 0x00 (0000ms, 0368ms total)
T41BC 000:632 JLINK_WriteReg(PSP, 0x20002000)  returns 0x00 (0000ms, 0368ms total)
T41BC 000:632 JLINK_WriteReg(CFBP, 0x00000000)  returns 0x00 (0000ms, 0368ms total)
T41BC 000:632 JLINK_SetBPEx(Addr = 0x20000000, Type = 0xFFFFFFF2)  returns 0x00000010 (0000ms, 0368ms total)
T41BC 000:632 JLINK_Go() -- CPU_ReadMem(4 bytes @ 0xE0001000) -- CPU_WriteMem(4 bytes @ 0xE0001000) (0005ms, 0373ms total)
T41BC 000:637 JLINK_IsHalted()  returns FALSE (0001ms, 0374ms total)
T41BC 000:639 JLINK_IsHalted()  returns FALSE (0000ms, 0373ms total)
T41BC 000:640 JLINK_IsHalted()  returns FALSE (0000ms, 0373ms total)
T41BC 000:641 JLINK_IsHalted()  returns FALSE (0000ms, 0373ms total)
T41BC 000:642 JLINK_IsHalted()  returns FALSE (0000ms, 0373ms total)
T41BC 000:643 JLINK_IsHalted()  returns FALSE (0000ms, 0373ms total)
T41BC 000:644 JLINK_IsHalted()  returns FALSE (0000ms, 0373ms total)
T41BC 000:645 JLINK_IsHalted()  returns FALSE (0000ms, 0373ms total)
T41BC 000:648 JLINK_IsHalted()  returns FALSE (0001ms, 0374ms total)
T41BC 000:650 JLINK_IsHalted() -- CPU_ReadMem(2 bytes @ 0x20000000)  returns TRUE (0007ms, 0380ms total)
T41BC 000:657 JLINK_ReadReg(R15 (PC))  returns 0x20000000 (0000ms, 0373ms total)
T41BC 000:657 JLINK_ClrBPEx(BPHandle = 0x00000010)  returns 0x00 (0000ms, 0373ms total)
T41BC 000:657 JLINK_ReadReg(R0)  returns 0x00000000 (0000ms, 0373ms total)
T41BC 000:657 JLINK_WriteMem(0x20000478, 0x0388 Bytes, ...) - Data: 0C D0 A5 42 0A D2 20 21 64 1E 03 98 00 F0 A4 F8 ... -- CPU_WriteMem(904 bytes @ 0x20000478)  returns 0x388 (0013ms, 0386ms total)
T41BC 000:670 JLINK_WriteMem(0x20000800, 0x0078 Bytes, ...) - Data: 21 88 00 23 C3 56 0A 46 C9 1C 05 98 B1 42 BB D8 ... -- CPU_WriteMem(120 bytes @ 0x20000800)  returns 0x78 (0002ms, 0388ms total)
T41BC 000:673 JLINK_WriteReg(R0, 0x0001B800)  returns 0x00 (0000ms, 0389ms total)
T41BC 000:673 JLINK_WriteReg(R1, 0x00000400)  returns 0x00 (0000ms, 0389ms total)
T41BC 000:673 JLINK_WriteReg(R2, 0x20000478)  returns 0x00 (0000ms, 0389ms total)
T41BC 000:673 JLINK_WriteReg(R3, 0x00000000)  returns 0x00 (0000ms, 0389ms total)
T41BC 000:673 JLINK_WriteReg(R4, 0x00000000)  returns 0x00 (0000ms, 0389ms total)
T41BC 000:673 JLINK_WriteReg(R5, 0x00000000)  returns 0x00 (0000ms, 0389ms total)
T41BC 000:673 JLINK_WriteReg(R6, 0x00000000)  returns 0x00 (0000ms, 0389ms total)
T41BC 000:673 JLINK_WriteReg(R7, 0x00000000)  returns 0x00 (0000ms, 0389ms total)
T41BC 000:673 JLINK_WriteReg(R8, 0x00000000)  returns 0x00 (0000ms, 0389ms total)
T41BC 000:673 JLINK_WriteReg(R9, 0x20000474)  returns 0x00 (0000ms, 0389ms total)
T41BC 000:673 JLINK_WriteReg(R10, 0x00000000)  returns 0x00 (0000ms, 0389ms total)
T41BC 000:673 JLINK_WriteReg(R11, 0x00000000)  returns 0x00 (0000ms, 0389ms total)
T41BC 000:673 JLINK_WriteReg(R12, 0x00000000)  returns 0x00 (0000ms, 0389ms total)
T41BC 000:673 JLINK_WriteReg(R13 (SP), 0x20002000)  returns 0x00 (0000ms, 0389ms total)
T41BC 000:673 JLINK_WriteReg(R14, 0x20000001)  returns 0x00 (0000ms, 0389ms total)
T41BC 000:673 JLINK_WriteReg(R15 (PC), 0x200001C4)  returns 0x00 (0000ms, 0389ms total)
T41BC 000:673 JLINK_WriteReg(XPSR, 0x01000000)  returns 0x00 (0000ms, 0389ms total)
T41BC 000:673 JLINK_WriteReg(MSP, 0x20002000)  returns 0x00 (0000ms, 0389ms total)
T41BC 000:673 JLINK_WriteReg(PSP, 0x20002000)  returns 0x00 (0000ms, 0389ms total)
T41BC 000:673 JLINK_WriteReg(CFBP, 0x00000000)  returns 0x00 (0000ms, 0389ms total)
T41BC 000:673 JLINK_SetBPEx(Addr = 0x20000000, Type = 0xFFFFFFF2)  returns 0x00000011 (0000ms, 0389ms total)
T41BC 000:673 JLINK_Go() -- CPU_ReadMem(4 bytes @ 0xE0001000) -- CPU_WriteMem(4 bytes @ 0xE0001000) (0005ms, 0394ms total)
T41BC 000:678 JLINK_IsHalted()  returns FALSE (0000ms, 0394ms total)
T41BC 000:680 JLINK_IsHalted()  returns FALSE (0000ms, 0394ms total)
T41BC 000:681 JLINK_IsHalted()  returns FALSE (0000ms, 0394ms total)
T41BC 000:684 JLINK_IsHalted()  returns FALSE (0000ms, 0394ms total)
T41BC 000:685 JLINK_IsHalted()  returns FALSE (0000ms, 0394ms total)
T41BC 000:687 JLINK_IsHalted()  returns FALSE (0000ms, 0394ms total)
T41BC 000:688 JLINK_IsHalted()  returns FALSE (0000ms, 0394ms total)
T41BC 000:689 JLINK_IsHalted() -- CPU_ReadMem(2 bytes @ 0x20000000)  returns TRUE (0007ms, 0401ms total)
T41BC 000:696 JLINK_ReadReg(R15 (PC))  returns 0x20000000 (0000ms, 0394ms total)
T41BC 000:696 JLINK_ClrBPEx(BPHandle = 0x00000011)  returns 0x00 (0000ms, 0394ms total)
T41BC 000:696 JLINK_ReadReg(R0)  returns 0x00000000 (0000ms, 0394ms total)
T41BC 000:696 JLINK_WriteMem(0x20000478, 0x0388 Bytes, ...) - Data: 18 30 05 9B 01 F0 CB FD 05 00 82 D1 38 6A 00 28 ... -- CPU_WriteMem(904 bytes @ 0x20000478)  returns 0x388 (0013ms, 0407ms total)
T41BC 000:709 JLINK_WriteMem(0x20000800, 0x0078 Bytes, ...) - Data: 01 46 1C 22 0E 48 FF F7 F7 F8 0E 4C 00 26 26 70 ... -- CPU_WriteMem(120 bytes @ 0x20000800)  returns 0x78 (0002ms, 0409ms total)
T41BC 000:711 JLINK_WriteReg(R0, 0x0001BC00)  returns 0x00 (0000ms, 0409ms total)
T41BC 000:711 JLINK_WriteReg(R1, 0x00000400)  returns 0x00 (0000ms, 0409ms total)
T41BC 000:711 JLINK_WriteReg(R2, 0x20000478)  returns 0x00 (0000ms, 0409ms total)
T41BC 000:711 JLINK_WriteReg(R3, 0x00000000)  returns 0x00 (0000ms, 0409ms total)
T41BC 000:711 JLINK_WriteReg(R4, 0x00000000)  returns 0x00 (0000ms, 0409ms total)
T41BC 000:711 JLINK_WriteReg(R5, 0x00000000)  returns 0x00 (0000ms, 0409ms total)
T41BC 000:711 JLINK_WriteReg(R6, 0x00000000)  returns 0x00 (0000ms, 0409ms total)
T41BC 000:711 JLINK_WriteReg(R7, 0x00000000)  returns 0x00 (0000ms, 0409ms total)
T41BC 000:711 JLINK_WriteReg(R8, 0x00000000)  returns 0x00 (0000ms, 0409ms total)
T41BC 000:711 JLINK_WriteReg(R9, 0x20000474)  returns 0x00 (0000ms, 0409ms total)
T41BC 000:711 JLINK_WriteReg(R10, 0x00000000)  returns 0x00 (0000ms, 0409ms total)
T41BC 000:711 JLINK_WriteReg(R11, 0x00000000)  returns 0x00 (0001ms, 0410ms total)
T41BC 000:712 JLINK_WriteReg(R12, 0x00000000)  returns 0x00 (0000ms, 0410ms total)
T41BC 000:712 JLINK_WriteReg(R13 (SP), 0x20002000)  returns 0x00 (0000ms, 0410ms total)
T41BC 000:712 JLINK_WriteReg(R14, 0x20000001)  returns 0x00 (0000ms, 0410ms total)
T41BC 000:712 JLINK_WriteReg(R15 (PC), 0x200001C4)  returns 0x00 (0000ms, 0410ms total)
